
T11B8 000:345 SEGGER J-Link V4.96d Log File (0005ms, 0292ms total)
T11B8 000:345 DLL Compiled: Jan 29 2015 11:45:37 (0005ms, 0292ms total)
T11B8 000:345 Logging started @ 2017-04-11 16:11 (0005ms, 0292ms total)
T11B8 000:350 JLINK_SetWarnOutHandler(...) (0000ms, 0292ms total)
T11B8 000:350 JLINK_OpenEx(...)
Firmware: J-Link ARM V8 compiled Nov 28 2014 13:44:46
Hardware: V8.00
S/N: 304423265
Feature(s): RDI,FlashDL,FlashBP,JFlash,GDBFULL  returns O.K. (0281ms, 0573ms total)
T11B8 000:631 JLINK_SetErrorOutHandler(...) (0000ms, 0573ms total)
T11B8 000:631 JLINK_ExecCommand("ProjectFile = "C:\Users\lenovo\Desktop\Test\电法项目MCU_PCB测试程序\4.GPS\USER\JLinkSettings.ini"", ...)  returns 0x00 (0009ms, 0582ms total)
T11B8 000:640 JLINK_ExecCommand("Device = STM32F103RC", ...)Device "STM32F103RC" selected.  returns 0x00 (0001ms, 0583ms total)
T11B8 000:641 JLINK_ExecCommand("DisableConnectionTimeout", ...)  returns 0x01 (0000ms, 0583ms total)
T11B8 000:641 JLINK_GetHardwareVersion()  returns 0x13880 (0001ms, 0584ms total)
T11B8 000:642 JLINK_GetDLLVersion()  returns 49604 (0000ms, 0584ms total)
T11B8 000:642 JLINK_GetFirmwareString(...) (0000ms, 0584ms total)
T11B8 000:645 JLINK_GetDLLVersion()  returns 49604 (0000ms, 0584ms total)
T11B8 000:645 JLINK_GetCompileDateTime() (0000ms, 0584ms total)
T11B8 000:646 JLINK_GetFirmwareString(...) (0000ms, 0584ms total)
T11B8 000:648 JLINK_GetHardwareVersion()  returns 0x13880 (0000ms, 0584ms total)
T11B8 000:650 JLINK_TIF_Select(JLINKARM_TIF_SWD)  returns 0x00 (0004ms, 0588ms total)
T11B8 000:654 JLINK_SetSpeed(500) (0001ms, 0589ms total)
T11B8 000:655 JLINK_GetId() >0x108 TIF>Found SWD-DP with ID 0x1BA01477 >0x0D TIF> >0x28 TIF> >0x0D TIF> >0x28 TIF> >0x0D TIF> >0x21 TIF> >0x0D TIF> >0x28 TIF> >0x0D TIF> >0x28 TIF> >0x0D TIF> >0x28 TIF> >0x0D TIF> >0x21 TIF> >0x0D TIF> >0x21 TIF> >0x0D TIF> >0x28 TIF> >0x0D TIF> >0x21 TIF> >0x0D TIF> >0x21 TIF> >0x108 TIF>Found SWD-DP with ID 0x1BA01477 >0x0D TIF> >0x21 TIF> >0x0D TIF> >0x28 TIF> >0x0D TIF> >0x28 TIF> >0x0D TIF> >0x21 TIF> >0x0D TIF> >0x28 TIF> >0x0D TIF> >0x21 TIF> >0x0D TIF> >0x21 TIF>
 >0x0D TIF> >0x21 TIF> >0x0D TIF> >0x21 TIF> >0x0D TIF> >0x28 TIF> >0x0D TIF> >0x28 TIF> >0x0D TIF> >0x21 TIF> >0x0D TIF> >0x28 TIF> >0x0D TIF> >0x28 TIF> >0x0D TIF> >0x28 TIF> >0x0D TIF> >0x21 TIF> >0x0D TIF> >0x21 TIF> >0x0D TIF> >0x28 TIF> >0x0D TIF> >0x21 TIF> >0x0D TIF> >0x21 TIF>Found Cortex-M3 r1p1, Little endian. -- CPU_WriteMem(4 bytes @ 0xE0002000) -- CPU_ReadMem(4 bytes @ 0xE000EDF0) -- CPU_ReadMem(4 bytes @ 0xE0002000)FPUnit: 6 code (BP) slots and 2 literal slots
 -- CPU_ReadMem(4 bytes @ 0xE000EDFC) -- CPU_ReadMem(4 bytes @ 0xE0001000) -- CPU_WriteMem(4 bytes @ 0xE0001000) -- CPU_ReadMem(4 bytes @ 0xE000ED88) -- CPU_WriteMem(4 bytes @ 0xE000ED88) -- CPU_ReadMem(4 bytes @ 0xE000ED88) -- CPU_WriteMem(4 bytes @ 0xE000ED88) -- CPU_ReadMem(4 bytes @ 0xE00FF010)TPIU fitted. -- CPU_ReadMem(4 bytes @ 0xE00FF014)ETM fitted. -- CPU_ReadMem(4 bytes @ 0xE00FF018) >0x0D TIF> >0x21 TIF>  returns 0x1BA01477 (0125ms, 0714ms total)
T11B8 000:780 JLINK_GetDLLVersion()  returns 49604 (0000ms, 0714ms total)
T11B8 000:780 JLINK_CORE_GetFound()  returns 0x30000FF (0000ms, 0714ms total)
T11B8 000:780 JLINK_GetDebugInfo(0x100) -- Value=0xE00FF003  returns 0x00 (0000ms, 0714ms total)
T11B8 000:781 JLINK_ReadMem (0xE00FF000, 0x0020 Bytes, ...) -- CPU is running -- CPU_ReadMem(32 bytes @ 0xE00FF000) - Data: 03 F0 F0 FF 03 20 F0 FF 03 30 F0 FF 03 10 F0 FF ...  returns 0x00 (0002ms, 0716ms total)
T11B8 000:783 JLINK_ReadMem (0xE000EFF0, 0x0010 Bytes, ...) -- CPU is running -- CPU_ReadMem(16 bytes @ 0xE000EFF0) - Data: 0D 00 00 00 E0 00 00 00 05 00 00 00 B1 00 00 00  returns 0x00 (0002ms, 0718ms total)
T11B8 000:785 JLINK_ReadMem (0xE000EFD0, 0x0020 Bytes, ...) -- CPU is running -- CPU_ReadMem(32 bytes @ 0xE000EFD0) - Data: 04 00 00 00 00 00 00 00 00 00 00 00 00 00 00 00 ...  returns 0x00 (0002ms, 0720ms total)
T11B8 000:787 JLINK_ReadMem (0xE0001FF0, 0x0010 Bytes, ...) -- CPU is running -- CPU_ReadMem(16 bytes @ 0xE0001FF0) - Data: 0D 00 00 00 E0 00 00 00 05 00 00 00 B1 00 00 00  returns 0x00 (0002ms, 0722ms total)
T11B8 000:789 JLINK_ReadMem (0xE0001FD0, 0x0020 Bytes, ...) -- CPU is running -- CPU_ReadMem(32 bytes @ 0xE0001FD0) - Data: 04 00 00 00 00 00 00 00 00 00 00 00 00 00 00 00 ...  returns 0x00 (0002ms, 0724ms total)
T11B8 000:791 JLINK_ReadMem (0xE0002FF0, 0x0010 Bytes, ...) -- CPU is running -- CPU_ReadMem(16 bytes @ 0xE0002FF0) - Data: 0D 00 00 00 E0 00 00 00 05 00 00 00 B1 00 00 00  returns 0x00 (0002ms, 0726ms total)
T11B8 000:793 JLINK_ReadMem (0xE0002FD0, 0x0020 Bytes, ...) -- CPU is running -- CPU_ReadMem(32 bytes @ 0xE0002FD0) - Data: 04 00 00 00 00 00 00 00 00 00 00 00 00 00 00 00 ...  returns 0x00 (0002ms, 0728ms total)
T11B8 000:795 JLINK_ReadMem (0xE0000FF0, 0x0010 Bytes, ...) -- CPU is running -- CPU_ReadMem(16 bytes @ 0xE0000FF0) - Data: 0D 00 00 00 E0 00 00 00 05 00 00 00 B1 00 00 00  returns 0x00 (0031ms, 0759ms total)
T11B8 000:826 JLINK_ReadMem (0xE0000FD0, 0x0020 Bytes, ...) -- CPU is running -- CPU_ReadMem(32 bytes @ 0xE0000FD0) - Data: 04 00 00 00 00 00 00 00 00 00 00 00 00 00 00 00 ...  returns 0x00 (0002ms, 0761ms total)
T11B8 000:828 JLINK_ReadMem (0xE0040FF0, 0x0010 Bytes, ...) -- CPU is running -- CPU_ReadMem(16 bytes @ 0xE0040FF0) - Data: 0D 00 00 00 90 00 00 00 05 00 00 00 B1 00 00 00  returns 0x00 (0002ms, 0763ms total)
T11B8 000:830 JLINK_ReadMem (0xE0040FD0, 0x0020 Bytes, ...) -- CPU is running -- CPU_ReadMem(32 bytes @ 0xE0040FD0) - Data: 04 00 00 00 00 00 00 00 00 00 00 00 00 00 00 00 ...  returns 0x00 (0002ms, 0765ms total)
T11B8 000:832 JLINK_ReadMem (0xE0041FF0, 0x0010 Bytes, ...) -- CPU is running -- CPU_ReadMem(16 bytes @ 0xE0041FF0) - Data: 0D 00 00 00 90 00 00 00 05 00 00 00 B1 00 00 00  returns 0x00 (0002ms, 0767ms total)
T11B8 000:834 JLINK_ReadMem (0xE0041FD0, 0x0020 Bytes, ...) -- CPU is running -- CPU_ReadMem(32 bytes @ 0xE0041FD0) - Data: 04 00 00 00 00 00 00 00 00 00 00 00 00 00 00 00 ...  returns 0x00 (0002ms, 0769ms total)
T11B8 000:836 JLINK_ReadMemU32(0xE000ED00, 0x0001 Items, ...) -- CPU is running -- CPU_ReadMem(4 bytes @ 0xE000ED00) - Data: 31 C2 1F 41  returns 0x01 (0002ms, 0771ms total)
T11B8 000:838 JLINK_SetResetType(JLINKARM_RESET_TYPE_NORMAL)  returns JLINKARM_RESET_TYPE_NORMAL (0000ms, 0771ms total)
T11B8 000:838 JLINK_Reset() -- CPU is running -- CPU_WriteMem(4 bytes @ 0xE000EDF0) -- CPU is running -- CPU_WriteMem(4 bytes @ 0xE000EDFC) >0x35 TIF> -- CPU is running -- CPU_WriteMem(4 bytes @ 0xE000ED0C) -- CPU is running -- CPU_ReadMem(4 bytes @ 0xE000EDF0) -- CPU is running -- CPU_ReadMem(4 bytes @ 0xE000EDF0) -- CPU is running -- CPU_WriteMem(4 bytes @ 0xE000EDF0) -- CPU is running -- CPU_WriteMem(4 bytes @ 0xE000EDFC) -- CPU is running -- CPU_ReadMem(4 bytes @ 0xE000EDF0)
 -- CPU_WriteMem(4 bytes @ 0xE0002000) -- CPU_ReadMem(4 bytes @ 0xE000EDFC) -- CPU_ReadMem(4 bytes @ 0xE0001000) (0032ms, 0803ms total)
T11B8 000:870 JLINK_ReadReg(R15 (PC))  returns 0x080001F8 (0000ms, 0803ms total)
T11B8 000:870 JLINK_ReadReg(XPSR)  returns 0x01000000 (0000ms, 0803ms total)
T11B8 000:870 JLINK_Halt()  returns 0x00 (0000ms, 0803ms total)
T11B8 000:871 JLINK_IsHalted()  returns TRUE (0000ms, 0804ms total)
T11B8 000:871 JLINK_ReadMemU32(0xE000EDF0, 0x0001 Items, ...) -- CPU_ReadMem(4 bytes @ 0xE000EDF0) - Data: 03 00 03 00  returns 0x01 (0001ms, 0805ms total)
T11B8 000:872 JLINK_WriteU32(0xE000EDF0, 0xA05F0003) -- CPU_WriteMem(4 bytes @ 0xE000EDF0)  returns 0x00 (0002ms, 0807ms total)
T11B8 000:874 JLINK_WriteU32(0xE000EDFC, 0x01000000) -- CPU_WriteMem(4 bytes @ 0xE000EDFC)  returns 0x00 (0002ms, 0809ms total)
T11B8 000:877 JLINK_GetHWStatus(...)  returns 0x00 (0002ms, 0811ms total)
T11B8 000:879 JLINK_GetNumBPUnits(Type = 0xFFFFFF00)  returns 0x06 (0000ms, 0811ms total)
T11B8 000:879 JLINK_GetNumBPUnits(Type = 0xF0)  returns 0x2000 (0000ms, 0811ms total)
T11B8 000:879 JLINK_GetNumWPUnits()  returns 0x04 (0000ms, 0811ms total)
T11B8 000:880 JLINK_GetSpeed()  returns 0x1F4 (0000ms, 0812ms total)
T11B8 000:881 JLINK_ReadMemU32(0xE000E004, 0x0001 Items, ...) -- CPU_ReadMem(4 bytes @ 0xE000E004) - Data: 01 00 00 00  returns 0x01 (0001ms, 0813ms total)
T11B8 000:882 JLINK_ReadMemU32(0xE000E004, 0x0001 Items, ...) -- CPU_ReadMem(4 bytes @ 0xE000E004) - Data: 01 00 00 00  returns 0x01 (0002ms, 0815ms total)
T11B8 000:884 JLINK_WriteMem(0xE0001000, 0x001C Bytes, ...) - Data: 01 00 00 00 00 00 00 00 00 00 00 00 00 00 00 00 ... -- CPU_WriteMem(28 bytes @ 0xE0001000)  returns 0x1C (0003ms, 0818ms total)
T11B8 000:887 JLINK_ReadMem (0xE0001000, 0x001C Bytes, ...) -- CPU_ReadMem(28 bytes @ 0xE0001000) - Data: 01 00 00 40 00 00 00 00 00 00 00 00 00 00 00 00 ...  returns 0x00 (0002ms, 0820ms total)
T11B8 000:889 JLINK_ReadReg(R15 (PC))  returns 0x080001F8 (0000ms, 0820ms total)
T11B8 000:889 JLINK_ReadReg(XPSR)  returns 0x01000000 (0000ms, 0820ms total)
T11B8 001:008 JLINK_SetResetType(JLINKARM_RESET_TYPE_NORMAL)  returns JLINKARM_RESET_TYPE_NORMAL (0000ms, 0820ms total)
T11B8 001:008 JLINK_Reset() -- CPU_WriteMem(4 bytes @ 0xE000EDF0) -- CPU_WriteMem(4 bytes @ 0xE000EDFC) >0x35 TIF> -- CPU_WriteMem(4 bytes @ 0xE000ED0C) -- CPU_ReadMem(4 bytes @ 0xE000EDF0) -- CPU_ReadMem(4 bytes @ 0xE000EDF0) -- CPU_WriteMem(4 bytes @ 0xE000EDF0) -- CPU_WriteMem(4 bytes @ 0xE000EDFC) -- CPU is running -- CPU_ReadMem(4 bytes @ 0xE000EDF0) -- CPU_WriteMem(4 bytes @ 0xE0002000) -- CPU_ReadMem(4 bytes @ 0xE000EDFC) -- CPU_ReadMem(4 bytes @ 0xE0001000) (0056ms, 0876ms total)
T11B8 001:064 JLINK_ReadReg(R15 (PC))  returns 0x080001F8 (0000ms, 0876ms total)
T11B8 001:064 JLINK_ReadReg(XPSR)  returns 0x01000000 (0000ms, 0876ms total)
T11B8 001:649 JLINK_ReadMem (0x080001F8, 0x003C Bytes, ...) -- CPU_ReadMem(128 bytes @ 0x080001C0) -- Updating C cache (128 bytes @ 0x080001C0) -- Read from C cache (60 bytes @ 0x080001F8) - Data: 09 48 80 47 09 48 00 47 FE E7 FE E7 FE E7 FE E7 ...  returns 0x00 (0004ms, 0880ms total)
T1FD0 003:558 JLINK_SetBPEx(Addr = 0x08002EAC, Type = 0xFFFFFFF2)  returns 0x00000001 (0004ms, 0884ms total)
T1FD0 003:562 JLINK_SetBPEx(Addr = 0x08002ED8, Type = 0xFFFFFFF2)  returns 0x00000002 (0000ms, 0884ms total)
T1FD0 003:562 JLINK_Go() -- CPU_WriteMem(4 bytes @ 0xE0002000) -- CPU_WriteMem(4 bytes @ 0xE0002000) -- CPU_WriteMem(4 bytes @ 0xE0002008) -- CPU_WriteMem(4 bytes @ 0xE000200C) -- CPU_WriteMem(4 bytes @ 0xE0002010) -- CPU_WriteMem(4 bytes @ 0xE0002014) -- CPU_WriteMem(4 bytes @ 0xE0002018) -- CPU_WriteMem(4 bytes @ 0xE000201C) -- CPU_WriteMem(4 bytes @ 0xE0001004) (0030ms, 0914ms total)
T1FD0 003:693 JLINK_IsHalted()  returns TRUE (0009ms, 0924ms total)
T1FD0 003:702 JLINK_Halt()  returns 0x00 (0000ms, 0915ms total)
T1FD0 003:702 JLINK_IsHalted()  returns TRUE (0000ms, 0915ms total)
T1FD0 003:702 JLINK_IsHalted()  returns TRUE (0000ms, 0915ms total)
T1FD0 003:702 JLINK_IsHalted()  returns TRUE (0000ms, 0915ms total)
T1FD0 003:702 JLINK_ReadReg(R15 (PC))  returns 0x08002EAC (0000ms, 0915ms total)
T1FD0 003:702 JLINK_ReadReg(XPSR)  returns 0x61000000 (0000ms, 0915ms total)
T1FD0 003:702 JLINK_ClrBPEx(BPHandle = 0x00000001)  returns 0x00 (0000ms, 0915ms total)
T1FD0 003:702 JLINK_ClrBPEx(BPHandle = 0x00000002)  returns 0x00 (0000ms, 0915ms total)
T1FD0 003:702 JLINK_ReadMemU32(0xE000ED30, 0x0001 Items, ...) -- CPU_ReadMem(4 bytes @ 0xE000ED30) - Data: 03 00 00 00  returns 0x01 (0002ms, 0917ms total)
T1FD0 003:704 JLINK_ReadMemU32(0xE0001028, 0x0001 Items, ...) -- CPU_ReadMem(4 bytes @ 0xE0001028) - Data: 00 00 00 00  returns 0x01 (0002ms, 0919ms total)
T1FD0 003:706 JLINK_ReadMemU32(0xE0001038, 0x0001 Items, ...) -- CPU_ReadMem(4 bytes @ 0xE0001038) - Data: 00 02 00 00  returns 0x01 (0002ms, 0921ms total)
T1FD0 003:708 JLINK_ReadMemU32(0xE0001048, 0x0001 Items, ...) -- CPU_ReadMem(4 bytes @ 0xE0001048) - Data: 00 00 00 00  returns 0x01 (0002ms, 0923ms total)
T1FD0 003:713 JLINK_ReadMemU32(0xE0001058, 0x0001 Items, ...) -- CPU_ReadMem(4 bytes @ 0xE0001058) - Data: 00 00 00 00  returns 0x01 (0001ms, 0924ms total)
T1FD0 003:714 JLINK_ReadReg(R0)  returns 0x20000E48 (0001ms, 0925ms total)
T1FD0 003:715 JLINK_ReadReg(R1)  returns 0x20001048 (0000ms, 0925ms total)
T1FD0 003:715 JLINK_ReadReg(R2)  returns 0x20001048 (0000ms, 0925ms total)
T1FD0 003:715 JLINK_ReadReg(R3)  returns 0x20001048 (0000ms, 0925ms total)
T1FD0 003:715 JLINK_ReadReg(R4)  returns 0x00000000 (0000ms, 0925ms total)
T1FD0 003:715 JLINK_ReadReg(R5)  returns 0x20000DE8 (0000ms, 0925ms total)
T1FD0 003:715 JLINK_ReadReg(R6)  returns 0x00000000 (0000ms, 0925ms total)
T1FD0 003:715 JLINK_ReadReg(R7)  returns 0x00000000 (0000ms, 0925ms total)
T1FD0 003:715 JLINK_ReadReg(R8)  returns 0x00000000 (0000ms, 0925ms total)
T1FD0 003:715 JLINK_ReadReg(R9)  returns 0x20000160 (0000ms, 0925ms total)
T1FD0 003:715 JLINK_ReadReg(R10)  returns 0x08003808 (0000ms, 0925ms total)
T1FD0 003:715 JLINK_ReadReg(R11)  returns 0x00000000 (0001ms, 0926ms total)
T1FD0 003:716 JLINK_ReadReg(R12)  returns 0x20000E28 (0000ms, 0926ms total)
T1FD0 003:716 JLINK_ReadReg(R13 (SP))  returns 0x20001448 (0000ms, 0926ms total)
T1FD0 003:716 JLINK_ReadReg(R14)  returns 0x080001E7 (0000ms, 0926ms total)
T1FD0 003:716 JLINK_ReadReg(R15 (PC))  returns 0x08002EAC (0000ms, 0926ms total)
T1FD0 003:716 JLINK_ReadReg(XPSR)  returns 0x61000000 (0000ms, 0926ms total)
T1FD0 003:716 JLINK_ReadReg(MSP)  returns 0x20001448 (0000ms, 0926ms total)
T1FD0 003:716 JLINK_ReadReg(PSP)  returns 0x20001000 (0000ms, 0926ms total)
T1FD0 003:716 JLINK_ReadReg(CFBP)  returns 0x00000000 (0000ms, 0926ms total)
T11B8 003:720 JLINK_ReadMem (0x08002EAC, 0x003C Bytes, ...) -- CPU_ReadMem(128 bytes @ 0x08002E80) -- Updating C cache (128 bytes @ 0x08002E80) -- Read from C cache (60 bytes @ 0x08002EAC) - Data: FF 27 4F F0 00 08 FF F7 A5 FF 4F F4 A0 60 FF F7 ...  returns 0x00 (0005ms, 0931ms total)
T1FD0 008:760 JLINK_Step() -- Read from C cache (2 bytes @ 0x08002EAC) -- CPU_ReadMem(4 bytes @ 0xE0001004) -- Simulated  returns 0x00 (0011ms, 0942ms total)
T1FD0 008:771 JLINK_ReadReg(R15 (PC))  returns 0x08002EAE (0000ms, 0942ms total)
T1FD0 008:771 JLINK_ReadReg(XPSR)  returns 0x21000000 (0000ms, 0942ms total)
T1FD0 008:771 JLINK_ReadReg(R0)  returns 0x20000E48 (0000ms, 0942ms total)
T1FD0 008:771 JLINK_ReadReg(R1)  returns 0x20001048 (0000ms, 0942ms total)
T1FD0 008:771 JLINK_ReadReg(R2)  returns 0x20001048 (0000ms, 0942ms total)
T1FD0 008:772 JLINK_ReadReg(R3)  returns 0x20001048 (0000ms, 0943ms total)
T1FD0 008:772 JLINK_ReadReg(R4)  returns 0x00000000 (0000ms, 0943ms total)
T1FD0 008:772 JLINK_ReadReg(R5)  returns 0x20000DE8 (0000ms, 0943ms total)
T1FD0 008:772 JLINK_ReadReg(R6)  returns 0x00000000 (0000ms, 0943ms total)
T1FD0 008:772 JLINK_ReadReg(R7)  returns 0x000000FF (0000ms, 0943ms total)
T1FD0 008:772 JLINK_ReadReg(R8)  returns 0x00000000 (0000ms, 0943ms total)
T1FD0 008:772 JLINK_ReadReg(R9)  returns 0x20000160 (0000ms, 0943ms total)
T1FD0 008:772 JLINK_ReadReg(R10)  returns 0x08003808 (0000ms, 0943ms total)
T1FD0 008:772 JLINK_ReadReg(R11)  returns 0x00000000 (0001ms, 0944ms total)
T1FD0 008:773 JLINK_ReadReg(R12)  returns 0x20000E28 (0001ms, 0945ms total)
T1FD0 008:774 JLINK_ReadReg(R13 (SP))  returns 0x20001448 (0000ms, 0945ms total)
T1FD0 008:774 JLINK_ReadReg(R14)  returns 0x080001E7 (0000ms, 0945ms total)
T1FD0 008:774 JLINK_ReadReg(R15 (PC))  returns 0x08002EAE (0000ms, 0945ms total)
T1FD0 008:774 JLINK_ReadReg(XPSR)  returns 0x21000000 (0000ms, 0945ms total)
T1FD0 008:774 JLINK_ReadReg(MSP)  returns 0x20001448 (0000ms, 0945ms total)
T1FD0 008:774 JLINK_ReadReg(PSP)  returns 0x20001000 (0000ms, 0945ms total)
T1FD0 008:774 JLINK_ReadReg(CFBP)  returns 0x00000000 (0000ms, 0945ms total)
T11B8 008:779 JLINK_ReadMem (0x08002EAE, 0x0002 Bytes, ...) -- Read from C cache (2 bytes @ 0x08002EAE) - Data: 4F F0  returns 0x00 (0000ms, 0945ms total)
T11B8 008:779 JLINK_ReadMem (0x08002EB0, 0x003C Bytes, ...) -- Read from C cache (60 bytes @ 0x08002EB0) - Data: 00 08 FF F7 A5 FF 4F F4 A0 60 FF F7 49 FA 4F F4 ...  returns 0x00 (0000ms, 0945ms total)
T1FD0 009:475 JLINK_Step() -- Read from C cache (2 bytes @ 0x08002EAE) -- Read from C cache (2 bytes @ 0x08002EB0) -- Simulated  returns 0x00 (0002ms, 0947ms total)
T1FD0 009:477 JLINK_ReadReg(R15 (PC))  returns 0x08002EB2 (0000ms, 0947ms total)
T1FD0 009:477 JLINK_ReadReg(XPSR)  returns 0x21000000 (0000ms, 0947ms total)
T1FD0 009:478 JLINK_ReadReg(R0)  returns 0x20000E48 (0000ms, 0947ms total)
T1FD0 009:478 JLINK_ReadReg(R1)  returns 0x20001048 (0000ms, 0947ms total)
T1FD0 009:478 JLINK_ReadReg(R2)  returns 0x20001048 (0000ms, 0947ms total)
T1FD0 009:478 JLINK_ReadReg(R3)  returns 0x20001048 (0000ms, 0947ms total)
T1FD0 009:478 JLINK_ReadReg(R4)  returns 0x00000000 (0000ms, 0947ms total)
T1FD0 009:478 JLINK_ReadReg(R5)  returns 0x20000DE8 (0000ms, 0947ms total)
T1FD0 009:479 JLINK_ReadReg(R6)  returns 0x00000000 (0000ms, 0948ms total)
T1FD0 009:479 JLINK_ReadReg(R7)  returns 0x000000FF (0000ms, 0948ms total)
T1FD0 009:479 JLINK_ReadReg(R8)  returns 0x00000000 (0000ms, 0948ms total)
T1FD0 009:479 JLINK_ReadReg(R9)  returns 0x20000160 (0000ms, 0948ms total)
T1FD0 009:479 JLINK_ReadReg(R10)  returns 0x08003808 (0000ms, 0948ms total)
T1FD0 009:479 JLINK_ReadReg(R11)  returns 0x00000000 (0000ms, 0948ms total)
T1FD0 009:479 JLINK_ReadReg(R12)  returns 0x20000E28 (0000ms, 0948ms total)
T1FD0 009:479 JLINK_ReadReg(R13 (SP))  returns 0x20001448 (0001ms, 0949ms total)
T1FD0 009:480 JLINK_ReadReg(R14)  returns 0x080001E7 (0000ms, 0949ms total)
T1FD0 009:480 JLINK_ReadReg(R15 (PC))  returns 0x08002EB2 (0000ms, 0949ms total)
T1FD0 009:480 JLINK_ReadReg(XPSR)  returns 0x21000000 (0000ms, 0949ms total)
T1FD0 009:480 JLINK_ReadReg(MSP)  returns 0x20001448 (0000ms, 0949ms total)
T1FD0 009:480 JLINK_ReadReg(PSP)  returns 0x20001000 (0000ms, 0949ms total)
T1FD0 009:480 JLINK_ReadReg(CFBP)  returns 0x00000000 (0000ms, 0949ms total)
T11B8 009:492 JLINK_ReadMem (0x08002EB2, 0x0002 Bytes, ...) -- Read from C cache (2 bytes @ 0x08002EB2) - Data: FF F7  returns 0x00 (0001ms, 0950ms total)
T11B8 009:493 JLINK_ReadMem (0x08002EB4, 0x003C Bytes, ...) -- Read from C cache (60 bytes @ 0x08002EB4) - Data: A5 FF 4F F4 A0 60 FF F7 49 FA 4F F4 E1 30 00 F0 ...  returns 0x00 (0000ms, 0950ms total)
T1FD0 010:425 JLINK_SetBPEx(Addr = 0x08002EB6, Type = 0xFFFFFFF2)  returns 0x00000003 (0002ms, 0952ms total)
T1FD0 010:427 JLINK_SetBPEx(Addr = 0x08002ED8, Type = 0xFFFFFFF2)  returns 0x00000004 (0000ms, 0952ms total)
T1FD0 010:427 JLINK_Go() -- CPU_WriteMem(4 bytes @ 0xE0002000) -- CPU_WriteMem(4 bytes @ 0xE0002000) -- CPU_WriteMem(4 bytes @ 0xE0002008) -- CPU_WriteMem(4 bytes @ 0xE0001004) (0019ms, 0971ms total)
T1FD0 010:546 JLINK_IsHalted()  returns TRUE (0012ms, 0983ms total)
T1FD0 010:558 JLINK_Halt()  returns 0x00 (0000ms, 0971ms total)
T1FD0 010:558 JLINK_IsHalted()  returns TRUE (0000ms, 0971ms total)
T1FD0 010:558 JLINK_IsHalted()  returns TRUE (0000ms, 0971ms total)
T1FD0 010:558 JLINK_IsHalted()  returns TRUE (0000ms, 0971ms total)
T1FD0 010:558 JLINK_ReadReg(R15 (PC))  returns 0x08002EB6 (0000ms, 0971ms total)
T1FD0 010:558 JLINK_ReadReg(XPSR)  returns 0xA1000000 (0000ms, 0971ms total)
T1FD0 010:558 JLINK_ClrBPEx(BPHandle = 0x00000003)  returns 0x00 (0000ms, 0971ms total)
T1FD0 010:559 JLINK_ClrBPEx(BPHandle = 0x00000004)  returns 0x00 (0000ms, 0971ms total)
T1FD0 010:559 JLINK_ReadMemU32(0xE000ED30, 0x0001 Items, ...) -- CPU_ReadMem(4 bytes @ 0xE000ED30) - Data: 03 00 00 00  returns 0x01 (0001ms, 0972ms total)
T1FD0 010:560 JLINK_ReadMemU32(0xE0001028, 0x0001 Items, ...) -- CPU_ReadMem(4 bytes @ 0xE0001028) - Data: 00 00 00 00  returns 0x01 (0002ms, 0974ms total)
T1FD0 010:562 JLINK_ReadMemU32(0xE0001038, 0x0001 Items, ...) -- CPU_ReadMem(4 bytes @ 0xE0001038) - Data: 00 02 00 00  returns 0x01 (0002ms, 0976ms total)
T1FD0 010:564 JLINK_ReadMemU32(0xE0001048, 0x0001 Items, ...) -- CPU_ReadMem(4 bytes @ 0xE0001048) - Data: 00 00 00 00  returns 0x01 (0002ms, 0978ms total)
T1FD0 010:566 JLINK_ReadMemU32(0xE0001058, 0x0001 Items, ...) -- CPU_ReadMem(4 bytes @ 0xE0001058) - Data: 00 00 00 00  returns 0x01 (0002ms, 0980ms total)
T1FD0 010:568 JLINK_ReadReg(R0)  returns 0x00002328 (0000ms, 0980ms total)
T1FD0 010:568 JLINK_ReadReg(R1)  returns 0x20000026 (0000ms, 0980ms total)
T1FD0 010:568 JLINK_ReadReg(R2)  returns 0xE000E000 (0000ms, 0980ms total)
T1FD0 010:569 JLINK_ReadReg(R3)  returns 0x20001048 (0000ms, 0981ms total)
T1FD0 010:569 JLINK_ReadReg(R4)  returns 0x00000000 (0000ms, 0981ms total)
T1FD0 010:569 JLINK_ReadReg(R5)  returns 0x20000DE8 (0000ms, 0981ms total)
T1FD0 010:569 JLINK_ReadReg(R6)  returns 0x00000000 (0000ms, 0981ms total)
T1FD0 010:569 JLINK_ReadReg(R7)  returns 0x000000FF (0000ms, 0981ms total)
T1FD0 010:569 JLINK_ReadReg(R8)  returns 0x00000000 (0000ms, 0981ms total)
T1FD0 010:569 JLINK_ReadReg(R9)  returns 0x20000160 (0000ms, 0981ms total)
T1FD0 010:569 JLINK_ReadReg(R10)  returns 0x08003808 (0000ms, 0981ms total)
T1FD0 010:569 JLINK_ReadReg(R11)  returns 0x00000000 (0000ms, 0981ms total)
T1FD0 010:569 JLINK_ReadReg(R12)  returns 0x20000E28 (0001ms, 0982ms total)
T1FD0 010:570 JLINK_ReadReg(R13 (SP))  returns 0x20001448 (0000ms, 0982ms total)
T1FD0 010:570 JLINK_ReadReg(R14)  returns 0x08002E0B (0000ms, 0982ms total)
T1FD0 010:570 JLINK_ReadReg(R15 (PC))  returns 0x08002EB6 (0000ms, 0982ms total)
T1FD0 010:570 JLINK_ReadReg(XPSR)  returns 0xA1000000 (0000ms, 0982ms total)
T1FD0 010:570 JLINK_ReadReg(MSP)  returns 0x20001448 (0000ms, 0982ms total)
T1FD0 010:570 JLINK_ReadReg(PSP)  returns 0x20001000 (0000ms, 0982ms total)
T1FD0 010:570 JLINK_ReadReg(CFBP)  returns 0x00000000 (0000ms, 0982ms total)
T11B8 010:576 JLINK_ReadMem (0x08002EB6, 0x0002 Bytes, ...) -- CPU_ReadMem(64 bytes @ 0x08002E80) -- Updating C cache (64 bytes @ 0x08002E80) -- Read from C cache (2 bytes @ 0x08002EB6) - Data: 4F F4  returns 0x00 (0003ms, 0985ms total)
T11B8 010:579 JLINK_ReadMem (0x08002EB8, 0x003C Bytes, ...) -- CPU_ReadMem(64 bytes @ 0x08002EC0) -- Updating C cache (64 bytes @ 0x08002EC0) -- Read from C cache (60 bytes @ 0x08002EB8) - Data: A0 60 FF F7 49 FA 4F F4 E1 30 00 F0 D3 F8 3D A0 ...  returns 0x00 (0004ms, 0989ms total)
T1FD0 011:368 JLINK_Step() -- Read from C cache (2 bytes @ 0x08002EB6) -- CPU_ReadMem(4 bytes @ 0xE0001004) -- Read from C cache (2 bytes @ 0x08002EB8) -- Simulated  returns 0x00 (0004ms, 0993ms total)
T1FD0 011:372 JLINK_ReadReg(R15 (PC))  returns 0x08002EBA (0000ms, 0993ms total)
T1FD0 011:372 JLINK_ReadReg(XPSR)  returns 0xA1000000 (0000ms, 0993ms total)
T1FD0 011:373 JLINK_SetBPEx(Addr = 0x08002EBE, Type = 0xFFFFFFF2)  returns 0x00000005 (0000ms, 0993ms total)
T1FD0 011:373 JLINK_SetBPEx(Addr = 0x08002ED8, Type = 0xFFFFFFF2)  returns 0x00000006 (0000ms, 0993ms total)
T1FD0 011:373 JLINK_Go() -- CPU_WriteMem(4 bytes @ 0xE0002000) -- CPU_WriteMem(4 bytes @ 0xE0002000) -- CPU_WriteMem(4 bytes @ 0xE0002008) -- CPU_WriteMem(4 bytes @ 0xE0001004) (0022ms, 1015ms total)
T1FD0 011:495 JLINK_IsHalted()  returns TRUE (0019ms, 1034ms total)
T1FD0 011:514 JLINK_Halt()  returns 0x00 (0000ms, 1015ms total)
T1FD0 011:514 JLINK_IsHalted()  returns TRUE (0000ms, 1015ms total)
T1FD0 011:514 JLINK_IsHalted()  returns TRUE (0000ms, 1015ms total)
T1FD0 011:515 JLINK_IsHalted()  returns TRUE (0000ms, 1015ms total)
T1FD0 011:515 JLINK_ReadReg(R15 (PC))  returns 0x08002EBE (0000ms, 1015ms total)
T1FD0 011:515 JLINK_ReadReg(XPSR)  returns 0x21000000 (0000ms, 1015ms total)
T1FD0 011:515 JLINK_ClrBPEx(BPHandle = 0x00000005)  returns 0x00 (0000ms, 1015ms total)
T1FD0 011:515 JLINK_ClrBPEx(BPHandle = 0x00000006)  returns 0x00 (0000ms, 1015ms total)
T1FD0 011:515 JLINK_ReadMemU32(0xE000ED30, 0x0001 Items, ...) -- CPU_ReadMem(4 bytes @ 0xE000ED30) - Data: 03 00 00 00  returns 0x01 (0002ms, 1017ms total)
T1FD0 011:517 JLINK_ReadMemU32(0xE0001028, 0x0001 Items, ...) -- CPU_ReadMem(4 bytes @ 0xE0001028) - Data: 00 00 00 00  returns 0x01 (0004ms, 1021ms total)
T1FD0 011:521 JLINK_ReadMemU32(0xE0001038, 0x0001 Items, ...) -- CPU_ReadMem(4 bytes @ 0xE0001038) - Data: 00 02 00 00  returns 0x01 (0002ms, 1023ms total)
T1FD0 011:523 JLINK_ReadMemU32(0xE0001048, 0x0001 Items, ...) -- CPU_ReadMem(4 bytes @ 0xE0001048) - Data: 00 00 00 00  returns 0x01 (0002ms, 1025ms total)
T1FD0 011:525 JLINK_ReadMemU32(0xE0001058, 0x0001 Items, ...) -- CPU_ReadMem(4 bytes @ 0xE0001058) - Data: 00 00 00 00  returns 0x01 (0003ms, 1028ms total)
T1FD0 011:528 JLINK_ReadReg(R0)  returns 0x00000500 (0001ms, 1029ms total)
T1FD0 011:529 JLINK_ReadReg(R1)  returns 0x05FA0500 (0000ms, 1029ms total)
T1FD0 011:529 JLINK_ReadReg(R2)  returns 0xE000ED0C (0000ms, 1029ms total)
T1FD0 011:529 JLINK_ReadReg(R3)  returns 0x20001048 (0000ms, 1029ms total)
T1FD0 011:529 JLINK_ReadReg(R4)  returns 0x00000000 (0000ms, 1029ms total)
T1FD0 011:529 JLINK_ReadReg(R5)  returns 0x20000DE8 (0000ms, 1029ms total)
T1FD0 011:529 JLINK_ReadReg(R6)  returns 0x00000000 (0000ms, 1029ms total)
T1FD0 011:529 JLINK_ReadReg(R7)  returns 0x000000FF (0000ms, 1029ms total)
T1FD0 011:529 JLINK_ReadReg(R8)  returns 0x00000000 (0000ms, 1029ms total)
T1FD0 011:529 JLINK_ReadReg(R9)  returns 0x20000160 (0000ms, 1029ms total)
T1FD0 011:529 JLINK_ReadReg(R10)  returns 0x08003808 (0001ms, 1030ms total)
T1FD0 011:530 JLINK_ReadReg(R11)  returns 0x00000000 (0000ms, 1030ms total)
T1FD0 011:530 JLINK_ReadReg(R12)  returns 0x20000E28 (0000ms, 1030ms total)
T1FD0 011:530 JLINK_ReadReg(R13 (SP))  returns 0x20001448 (0000ms, 1030ms total)
T1FD0 011:530 JLINK_ReadReg(R14)  returns 0x08002EBF (0000ms, 1030ms total)
T1FD0 011:530 JLINK_ReadReg(R15 (PC))  returns 0x08002EBE (0000ms, 1030ms total)
T1FD0 011:530 JLINK_ReadReg(XPSR)  returns 0x21000000 (0000ms, 1030ms total)
T1FD0 011:530 JLINK_ReadReg(MSP)  returns 0x20001448 (0000ms, 1030ms total)
T1FD0 011:530 JLINK_ReadReg(PSP)  returns 0x20001000 (0000ms, 1030ms total)
T1FD0 011:530 JLINK_ReadReg(CFBP)  returns 0x00000000 (0000ms, 1030ms total)
T11B8 011:536 JLINK_ReadMem (0x08002EBE, 0x0002 Bytes, ...) -- CPU_ReadMem(64 bytes @ 0x08002E80) -- Updating C cache (64 bytes @ 0x08002E80) -- Read from C cache (2 bytes @ 0x08002EBE) - Data: 4F F4  returns 0x00 (0003ms, 1033ms total)
T11B8 011:539 JLINK_ReadMem (0x08002EC0, 0x003C Bytes, ...) -- CPU_ReadMem(64 bytes @ 0x08002EC0) -- Updating C cache (64 bytes @ 0x08002EC0) -- Read from C cache (60 bytes @ 0x08002EC0) - Data: E1 30 00 F0 D3 F8 3D A0 FD F7 B8 F9 4F F4 16 40 ...  returns 0x00 (0003ms, 1036ms total)
T1FD0 012:569 JLINK_Step() -- Read from C cache (2 bytes @ 0x08002EBE) -- CPU_ReadMem(4 bytes @ 0xE0001004) -- Read from C cache (2 bytes @ 0x08002EC0) -- Simulated  returns 0x00 (0012ms, 1048ms total)
T1FD0 012:581 JLINK_ReadReg(R15 (PC))  returns 0x08002EC2 (0000ms, 1048ms total)
T1FD0 012:581 JLINK_ReadReg(XPSR)  returns 0x21000000 (0000ms, 1048ms total)
T1FD0 012:581 JLINK_SetBPEx(Addr = 0x08002EC6, Type = 0xFFFFFFF2)  returns 0x00000007 (0000ms, 1048ms total)
T1FD0 012:581 JLINK_SetBPEx(Addr = 0x08002ED8, Type = 0xFFFFFFF2)  returns 0x00000008 (0000ms, 1048ms total)
T1FD0 012:581 JLINK_Go() -- CPU_WriteMem(4 bytes @ 0xE0002000) -- CPU_WriteMem(4 bytes @ 0xE0002000) -- CPU_WriteMem(4 bytes @ 0xE0002008) -- CPU_WriteMem(4 bytes @ 0xE0001004) (0012ms, 1060ms total)
T1FD0 012:693 JLINK_IsHalted()  returns TRUE (0009ms, 1069ms total)
T1FD0 012:702 JLINK_Halt()  returns 0x00 (0000ms, 1060ms total)
T1FD0 012:702 JLINK_IsHalted()  returns TRUE (0001ms, 1061ms total)
T1FD0 012:703 JLINK_IsHalted()  returns TRUE (0000ms, 1060ms total)
T1FD0 012:703 JLINK_IsHalted()  returns TRUE (0000ms, 1060ms total)
T1FD0 012:703 JLINK_ReadReg(R15 (PC))  returns 0x08002EC6 (0000ms, 1060ms total)
T1FD0 012:703 JLINK_ReadReg(XPSR)  returns 0x01000000 (0000ms, 1060ms total)
T1FD0 012:703 JLINK_ClrBPEx(BPHandle = 0x00000007)  returns 0x00 (0000ms, 1060ms total)
T1FD0 012:703 JLINK_ClrBPEx(BPHandle = 0x00000008)  returns 0x00 (0000ms, 1060ms total)
T1FD0 012:703 JLINK_ReadMemU32(0xE000ED30, 0x0001 Items, ...) -- CPU_ReadMem(4 bytes @ 0xE000ED30) - Data: 03 00 00 00  returns 0x01 (0002ms, 1062ms total)
T1FD0 012:705 JLINK_ReadMemU32(0xE0001028, 0x0001 Items, ...) -- CPU_ReadMem(4 bytes @ 0xE0001028) - Data: 00 00 00 00  returns 0x01 (0005ms, 1067ms total)
T1FD0 012:710 JLINK_ReadMemU32(0xE0001038, 0x0001 Items, ...) -- CPU_ReadMem(4 bytes @ 0xE0001038) - Data: 00 02 00 00  returns 0x01 (0002ms, 1069ms total)
T1FD0 012:712 JLINK_ReadMemU32(0xE0001048, 0x0001 Items, ...) -- CPU_ReadMem(4 bytes @ 0xE0001048) - Data: 00 00 00 00  returns 0x01 (0003ms, 1072ms total)
T1FD0 012:715 JLINK_ReadMemU32(0xE0001058, 0x0001 Items, ...) -- CPU_ReadMem(4 bytes @ 0xE0001058) - Data: 00 00 00 00  returns 0x01 (0005ms, 1077ms total)
T1FD0 012:720 JLINK_ReadReg(R0)  returns 0x40013800 (0000ms, 1077ms total)
T1FD0 012:720 JLINK_ReadReg(R1)  returns 0x00000001 (0000ms, 1077ms total)
T1FD0 012:720 JLINK_ReadReg(R2)  returns 0x0000202C (0000ms, 1077ms total)
T1FD0 012:721 JLINK_ReadReg(R3)  returns 0x40013800 (0000ms, 1077ms total)
T1FD0 012:721 JLINK_ReadReg(R4)  returns 0x00000000 (0000ms, 1077ms total)
T1FD0 012:721 JLINK_ReadReg(R5)  returns 0x20000DE8 (0000ms, 1077ms total)
T1FD0 012:721 JLINK_ReadReg(R6)  returns 0x00000000 (0000ms, 1077ms total)
T1FD0 012:721 JLINK_ReadReg(R7)  returns 0x000000FF (0000ms, 1077ms total)
T1FD0 012:721 JLINK_ReadReg(R8)  returns 0x00000000 (0000ms, 1077ms total)
T1FD0 012:721 JLINK_ReadReg(R9)  returns 0x20000160 (0000ms, 1077ms total)
T1FD0 012:721 JLINK_ReadReg(R10)  returns 0x08003808 (0001ms, 1078ms total)
T1FD0 012:722 JLINK_ReadReg(R11)  returns 0x00000000 (0000ms, 1078ms total)
T1FD0 012:722 JLINK_ReadReg(R12)  returns 0x00000400 (0000ms, 1078ms total)
T1FD0 012:722 JLINK_ReadReg(R13 (SP))  returns 0x20001448 (0000ms, 1078ms total)
T1FD0 012:722 JLINK_ReadReg(R14)  returns 0x08003101 (0000ms, 1078ms total)
T1FD0 012:722 JLINK_ReadReg(R15 (PC))  returns 0x08002EC6 (0000ms, 1078ms total)
T1FD0 012:722 JLINK_ReadReg(XPSR)  returns 0x01000000 (0000ms, 1078ms total)
T1FD0 012:722 JLINK_ReadReg(MSP)  returns 0x20001448 (0000ms, 1078ms total)
T1FD0 012:722 JLINK_ReadReg(PSP)  returns 0x20001000 (0001ms, 1079ms total)
T1FD0 012:723 JLINK_ReadReg(CFBP)  returns 0x00000000 (0000ms, 1079ms total)
T11B8 012:729 JLINK_ReadMem (0x08002EC6, 0x0002 Bytes, ...) -- CPU_ReadMem(64 bytes @ 0x08002EC0) -- Updating C cache (64 bytes @ 0x08002EC0) -- Read from C cache (2 bytes @ 0x08002EC6) - Data: 3D A0  returns 0x00 (0004ms, 1083ms total)
T11B8 012:733 JLINK_ReadMem (0x08002EC8, 0x003C Bytes, ...) -- CPU_ReadMem(64 bytes @ 0x08002F00) -- Updating C cache (64 bytes @ 0x08002F00) -- Read from C cache (60 bytes @ 0x08002EC8) - Data: FD F7 B8 F9 4F F4 16 40 FF F7 DC FD FE F7 40 FE ...  returns 0x00 (0008ms, 1091ms total)
T1FD0 013:554 JLINK_Step() -- Read from C cache (2 bytes @ 0x08002EC6) -- CPU_ReadMem(4 bytes @ 0xE0001004) -- Simulated  returns 0x00 (0004ms, 1095ms total)
T1FD0 013:558 JLINK_ReadReg(R15 (PC))  returns 0x08002EC8 (0000ms, 1095ms total)
T1FD0 013:558 JLINK_ReadReg(XPSR)  returns 0x01000000 (0000ms, 1095ms total)
T1FD0 013:558 JLINK_SetBPEx(Addr = 0x08002ECC, Type = 0xFFFFFFF2)  returns 0x00000009 (0000ms, 1095ms total)
T1FD0 013:558 JLINK_SetBPEx(Addr = 0x08002ED8, Type = 0xFFFFFFF2)  returns 0x0000000A (0000ms, 1095ms total)
T1FD0 013:559 JLINK_Go() -- CPU_WriteMem(4 bytes @ 0xE0002000) -- CPU_WriteMem(4 bytes @ 0xE0002000) -- CPU_WriteMem(4 bytes @ 0xE0002008) -- CPU_WriteMem(4 bytes @ 0xE0001004) (0011ms, 1107ms total)
T1FD0 013:673 JLINK_IsHalted()  returns TRUE (0010ms, 1117ms total)
T1FD0 013:683 JLINK_Halt()  returns 0x00 (0000ms, 1107ms total)
T1FD0 013:683 JLINK_IsHalted()  returns TRUE (0000ms, 1107ms total)
T1FD0 013:683 JLINK_IsHalted()  returns TRUE (0000ms, 1107ms total)
T1FD0 013:683 JLINK_IsHalted()  returns TRUE (0001ms, 1108ms total)
T1FD0 013:687 JLINK_ReadReg(R15 (PC))  returns 0x08002ECC (0000ms, 1110ms total)
T1FD0 013:687 JLINK_ReadReg(XPSR)  returns 0x61000000 (0000ms, 1110ms total)
T1FD0 013:687 JLINK_ClrBPEx(BPHandle = 0x00000009)  returns 0x00 (0000ms, 1110ms total)
T1FD0 013:687 JLINK_ClrBPEx(BPHandle = 0x0000000A)  returns 0x00 (0000ms, 1110ms total)
T1FD0 013:687 JLINK_ReadMemU32(0xE000ED30, 0x0001 Items, ...) -- CPU_ReadMem(4 bytes @ 0xE000ED30) - Data: 03 00 00 00  returns 0x01 (0003ms, 1113ms total)
T1FD0 013:690 JLINK_ReadMemU32(0xE0001028, 0x0001 Items, ...) -- CPU_ReadMem(4 bytes @ 0xE0001028) - Data: 00 00 00 00  returns 0x01 (0002ms, 1115ms total)
T1FD0 013:692 JLINK_ReadMemU32(0xE0001038, 0x0001 Items, ...) -- CPU_ReadMem(4 bytes @ 0xE0001038) - Data: 00 02 00 00  returns 0x01 (0002ms, 1117ms total)
T1FD0 013:694 JLINK_ReadMemU32(0xE0001048, 0x0001 Items, ...) -- CPU_ReadMem(4 bytes @ 0xE0001048) - Data: 00 00 00 00  returns 0x01 (0005ms, 1122ms total)
T1FD0 013:699 JLINK_ReadMemU32(0xE0001058, 0x0001 Items, ...) -- CPU_ReadMem(4 bytes @ 0xE0001058) - Data: 00 00 00 00  returns 0x01 (0005ms, 1127ms total)
T1FD0 013:704 JLINK_ReadReg(R0)  returns 0x0000000D (0000ms, 1127ms total)
T1FD0 013:704 JLINK_ReadReg(R1)  returns 0x08002FC9 (0001ms, 1128ms total)
T1FD0 013:705 JLINK_ReadReg(R2)  returns 0x08002FCA (0000ms, 1128ms total)
T1FD0 013:705 JLINK_ReadReg(R3)  returns 0x40013804 (0000ms, 1128ms total)
T1FD0 013:705 JLINK_ReadReg(R4)  returns 0x00000000 (0000ms, 1128ms total)
T1FD0 013:705 JLINK_ReadReg(R5)  returns 0x20000DE8 (0000ms, 1128ms total)
T1FD0 013:705 JLINK_ReadReg(R6)  returns 0x00000000 (0000ms, 1128ms total)
T1FD0 013:705 JLINK_ReadReg(R7)  returns 0x000000FF (0000ms, 1128ms total)
T1FD0 013:705 JLINK_ReadReg(R8)  returns 0x00000000 (0000ms, 1128ms total)
T1FD0 013:705 JLINK_ReadReg(R9)  returns 0x20000160 (0000ms, 1128ms total)
T1FD0 013:705 JLINK_ReadReg(R10)  returns 0x08003808 (0000ms, 1128ms total)
T1FD0 013:706 JLINK_ReadReg(R11)  returns 0x00000000 (0000ms, 1129ms total)
T1FD0 013:706 JLINK_ReadReg(R12)  returns 0x00000400 (0000ms, 1129ms total)
T1FD0 013:706 JLINK_ReadReg(R13 (SP))  returns 0x20001448 (0000ms, 1129ms total)
T1FD0 013:706 JLINK_ReadReg(R14)  returns 0x08000A95 (0000ms, 1129ms total)
T1FD0 013:706 JLINK_ReadReg(R15 (PC))  returns 0x08002ECC (0000ms, 1129ms total)
T1FD0 013:706 JLINK_ReadReg(XPSR)  returns 0x61000000 (0000ms, 1129ms total)
T1FD0 013:706 JLINK_ReadReg(MSP)  returns 0x20001448 (0000ms, 1129ms total)
T1FD0 013:706 JLINK_ReadReg(PSP)  returns 0x20001000 (0000ms, 1129ms total)
T1FD0 013:706 JLINK_ReadReg(CFBP)  returns 0x00000000 (0000ms, 1129ms total)
T1FD0 014:346 JLINK_ReadMem (0x08002ECC, 0x003C Bytes, ...) -- CPU_ReadMem(128 bytes @ 0x08002EC0) -- Updating C cache (128 bytes @ 0x08002EC0) -- Read from C cache (60 bytes @ 0x08002ECC) - Data: 4F F4 16 40 FF F7 DC FD FE F7 40 FE 3C A0 FD F7 ...  returns 0x00 (0005ms, 1134ms total)
T1FD0 014:351 JLINK_Step() -- Read from C cache (2 bytes @ 0x08002ECC) -- CPU_ReadMem(4 bytes @ 0xE0001004) -- Read from C cache (2 bytes @ 0x08002ECE) -- Simulated  returns 0x00 (0004ms, 1138ms total)
T1FD0 014:355 JLINK_ReadReg(R15 (PC))  returns 0x08002ED0 (0000ms, 1138ms total)
T1FD0 014:355 JLINK_ReadReg(XPSR)  returns 0x61000000 (0000ms, 1138ms total)
T1FD0 014:355 JLINK_SetBPEx(Addr = 0x08002ED4, Type = 0xFFFFFFF2)  returns 0x0000000B (0000ms, 1138ms total)
T1FD0 014:355 JLINK_SetBPEx(Addr = 0x08002ED8, Type = 0xFFFFFFF2)  returns 0x0000000C (0000ms, 1138ms total)
T1FD0 014:355 JLINK_Go() -- CPU_WriteMem(4 bytes @ 0xE0002000) -- CPU_WriteMem(4 bytes @ 0xE0002000) -- CPU_WriteMem(4 bytes @ 0xE0002008) -- CPU_WriteMem(4 bytes @ 0xE0001004) (0012ms, 1150ms total)
T1FD0 014:467 JLINK_IsHalted()  returns TRUE (0009ms, 1159ms total)
T1FD0 014:476 JLINK_Halt()  returns 0x00 (0000ms, 1150ms total)
T1FD0 014:476 JLINK_IsHalted()  returns TRUE (0000ms, 1150ms total)
T1FD0 014:476 JLINK_IsHalted()  returns TRUE (0000ms, 1150ms total)
T1FD0 014:476 JLINK_IsHalted()  returns TRUE (0000ms, 1150ms total)
T1FD0 014:476 JLINK_ReadReg(R15 (PC))  returns 0x08002ED4 (0000ms, 1150ms total)
T1FD0 014:476 JLINK_ReadReg(XPSR)  returns 0x41000000 (0001ms, 1151ms total)
T1FD0 014:477 JLINK_ClrBPEx(BPHandle = 0x0000000B)  returns 0x00 (0000ms, 1151ms total)
T1FD0 014:477 JLINK_ClrBPEx(BPHandle = 0x0000000C)  returns 0x00 (0000ms, 1151ms total)
T1FD0 014:477 JLINK_ReadMemU32(0xE000ED30, 0x0001 Items, ...) -- CPU_ReadMem(4 bytes @ 0xE000ED30) - Data: 03 00 00 00  returns 0x01 (0001ms, 1152ms total)
T1FD0 014:478 JLINK_ReadMemU32(0xE0001028, 0x0001 Items, ...) -- CPU_ReadMem(4 bytes @ 0xE0001028) - Data: 00 00 00 00  returns 0x01 (0002ms, 1154ms total)
T1FD0 014:480 JLINK_ReadMemU32(0xE0001038, 0x0001 Items, ...) -- CPU_ReadMem(4 bytes @ 0xE0001038) - Data: 00 02 00 00  returns 0x01 (0002ms, 1156ms total)
T1FD0 014:482 JLINK_ReadMemU32(0xE0001048, 0x0001 Items, ...) -- CPU_ReadMem(4 bytes @ 0xE0001048) - Data: 00 00 00 00  returns 0x01 (0002ms, 1158ms total)
T1FD0 014:484 JLINK_ReadMemU32(0xE0001058, 0x0001 Items, ...) -- CPU_ReadMem(4 bytes @ 0xE0001058) - Data: 00 00 00 00  returns 0x01 (0002ms, 1160ms total)
T1FD0 014:486 JLINK_ReadReg(R0)  returns 0x40000800 (0000ms, 1160ms total)
T1FD0 014:486 JLINK_ReadReg(R1)  returns 0x00000000 (0000ms, 1160ms total)
T1FD0 014:486 JLINK_ReadReg(R2)  returns 0x00000000 (0001ms, 1161ms total)
T1FD0 014:487 JLINK_ReadReg(R3)  returns 0x0000FFFE (0000ms, 1161ms total)
T1FD0 014:487 JLINK_ReadReg(R4)  returns 0x00000000 (0000ms, 1161ms total)
T1FD0 014:487 JLINK_ReadReg(R5)  returns 0x20000DE8 (0000ms, 1161ms total)
T1FD0 014:487 JLINK_ReadReg(R6)  returns 0x00000000 (0000ms, 1161ms total)
T1FD0 014:487 JLINK_ReadReg(R7)  returns 0x000000FF (0000ms, 1161ms total)
T1FD0 014:487 JLINK_ReadReg(R8)  returns 0x00000000 (0000ms, 1161ms total)
T1FD0 014:487 JLINK_ReadReg(R9)  returns 0x20000160 (0000ms, 1161ms total)
T1FD0 014:487 JLINK_ReadReg(R10)  returns 0x08003808 (0000ms, 1161ms total)
T1FD0 014:487 JLINK_ReadReg(R11)  returns 0x00000000 (0000ms, 1161ms total)
T1FD0 014:487 JLINK_ReadReg(R12)  returns 0x00000800 (0000ms, 1161ms total)
T1FD0 014:487 JLINK_ReadReg(R13 (SP))  returns 0x20001448 (0000ms, 1161ms total)
T1FD0 014:488 JLINK_ReadReg(R14)  returns 0x080028B9 (0000ms, 1162ms total)
T1FD0 014:488 JLINK_ReadReg(R15 (PC))  returns 0x08002ED4 (0000ms, 1162ms total)
T1FD0 014:488 JLINK_ReadReg(XPSR)  returns 0x41000000 (0000ms, 1162ms total)
T1FD0 014:488 JLINK_ReadReg(MSP)  returns 0x20001448 (0000ms, 1162ms total)
T1FD0 014:488 JLINK_ReadReg(PSP)  returns 0x20001000 (0000ms, 1162ms total)
T1FD0 014:488 JLINK_ReadReg(CFBP)  returns 0x00000000 (0000ms, 1162ms total)
T11B8 014:492 JLINK_ReadMem (0x08002ED4, 0x003C Bytes, ...) -- CPU_ReadMem(128 bytes @ 0x08002EC0) -- Updating C cache (128 bytes @ 0x08002EC0) -- Read from C cache (60 bytes @ 0x08002ED4) - Data: FE F7 40 FE 3C A0 FD F7 AF F9 05 20 FF F7 D8 FB ...  returns 0x00 (0005ms, 1167ms total)
T1FD0 015:405 JLINK_SetBPEx(Addr = 0x08002ED8, Type = 0xFFFFFFF2)  returns 0x0000000D (0013ms, 1180ms total)
T1FD0 015:418 JLINK_Go() -- CPU_WriteMem(4 bytes @ 0xE0002000) -- CPU_WriteMem(4 bytes @ 0xE0002008) -- CPU_WriteMem(4 bytes @ 0xE000200C) (0015ms, 1195ms total)
T1FD0 015:533 JLINK_IsHalted()  returns FALSE (0001ms, 1196ms total)
T1FD0 015:634 JLINK_IsHalted()  returns FALSE (0001ms, 1196ms total)
T1FD0 015:736 JLINK_IsHalted()  returns FALSE (0004ms, 1199ms total)
T1FD0 015:841 JLINK_IsHalted()  returns FALSE (0002ms, 1197ms total)
T1FD0 015:943 JLINK_ReadMemU32(0xE0001004, 0x0001 Items, ...) -- CPU is running -- CPU_ReadMem(4 bytes @ 0xE0001004) - Data: 3D 7B 39 02  returns 0x01 (0003ms, 1198ms total)
T1FD0 015:946 JLINK_IsHalted()  returns FALSE (0002ms, 1200ms total)
T1FD0 016:050 JLINK_IsHalted()  returns FALSE (0002ms, 1200ms total)
T1FD0 016:153 JLINK_IsHalted()  returns FALSE (0001ms, 1199ms total)
T1FD0 016:254 JLINK_IsHalted()  returns FALSE (0004ms, 1202ms total)
T1FD0 016:358 JLINK_IsHalted()  returns FALSE (0001ms, 1199ms total)
T1FD0 016:459 JLINK_ReadMemU32(0xE0001004, 0x0001 Items, ...) -- CPU is running -- CPU_ReadMem(4 bytes @ 0xE0001004) - Data: 00 3A 70 04  returns 0x01 (0003ms, 1201ms total)
T1FD0 016:462 JLINK_IsHalted()  returns FALSE (0002ms, 1203ms total)
T1FD0 016:564 JLINK_IsHalted()  returns FALSE (0004ms, 1205ms total)
T1FD0 016:668 JLINK_IsHalted()  returns FALSE (0002ms, 1203ms total)
T1FD0 016:771 JLINK_IsHalted()  returns FALSE (0001ms, 1202ms total)
T1FD0 016:875 JLINK_IsHalted()  returns FALSE (0002ms, 1203ms total)
T1FD0 016:977 JLINK_ReadMemU32(0xE0001004, 0x0001 Items, ...) -- CPU is running -- CPU_ReadMem(4 bytes @ 0xE0001004) - Data: 07 F0 A7 06  returns 0x01 (0001ms, 1202ms total)
T1FD0 016:978 JLINK_IsHalted()  returns FALSE (0002ms, 1204ms total)
T1FD0 017:080 JLINK_IsHalted()  returns FALSE (0001ms, 1203ms total)
T1FD0 017:181 JLINK_IsHalted()  returns FALSE (0002ms, 1204ms total)
T1FD0 017:283 JLINK_IsHalted()  returns FALSE (0001ms, 1203ms total)
T1FD0 017:384 JLINK_IsHalted()  returns FALSE (0001ms, 1203ms total)
T1FD0 017:485 JLINK_ReadMemU32(0xE0001004, 0x0001 Items, ...) -- CPU is running -- CPU_ReadMem(4 bytes @ 0xE0001004) - Data: EA 13 D8 08  returns 0x01 (0003ms, 1205ms total)
T1FD0 017:489 JLINK_IsHalted()  returns FALSE (0001ms, 1206ms total)
T1FD0 017:591 JLINK_IsHalted()  returns FALSE (0003ms, 1208ms total)
T1FD0 017:694 JLINK_IsHalted()  returns FALSE (0005ms, 1210ms total)
T1FD0 017:799 JLINK_IsHalted()  returns FALSE (0001ms, 1206ms total)
T1FD0 017:900 JLINK_IsHalted()  returns FALSE (0001ms, 1206ms total)
T1FD0 018:004 JLINK_ReadMemU32(0xE0001004, 0x0001 Items, ...) -- CPU is running -- CPU_ReadMem(4 bytes @ 0xE0001004) - Data: B3 78 11 0B  returns 0x01 (0002ms, 1207ms total)
T1FD0 018:006 JLINK_IsHalted()  returns FALSE (0002ms, 1209ms total)
T1FD0 018:116 JLINK_IsHalted()  returns FALSE (0003ms, 1210ms total)
T1FD0 018:219 JLINK_IsHalted()  returns FALSE (0004ms, 1211ms total)
T1FD0 018:323 JLINK_IsHalted()  returns FALSE (0004ms, 1211ms total)
T1FD0 018:427 JLINK_IsHalted()  returns FALSE (0006ms, 1213ms total)
T1FD0 018:533 JLINK_ReadMemU32(0xE0001004, 0x0001 Items, ...) -- CPU is running -- CPU_ReadMem(4 bytes @ 0xE0001004) - Data: C7 92 57 0D  returns 0x01 (0007ms, 1214ms total)
T1FD0 018:540 JLINK_IsHalted()  returns FALSE (0002ms, 1216ms total)
T1FD0 018:642 JLINK_IsHalted()  returns FALSE (0002ms, 1216ms total)
T1FD0 018:744 JLINK_IsHalted()  returns FALSE (0001ms, 1215ms total)
T1FD0 018:850 JLINK_IsHalted()  returns FALSE (0002ms, 1216ms total)
T1FD0 018:953 JLINK_IsHalted()  returns FALSE (0001ms, 1215ms total)
T1FD0 019:058 JLINK_ReadMemU32(0xE0001004, 0x0001 Items, ...) -- CPU is running -- CPU_ReadMem(4 bytes @ 0xE0001004) - Data: 38 5D 97 0F  returns 0x01 (0002ms, 1216ms total)
T1FD0 019:060 JLINK_IsHalted()  returns FALSE (0007ms, 1223ms total)
T1FD0 019:168 JLINK_IsHalted()  returns FALSE (0002ms, 1218ms total)
T1FD0 019:270 JLINK_IsHalted()  returns FALSE (0006ms, 1222ms total)
T1FD0 019:379 JLINK_IsHalted()  returns FALSE (0006ms, 1222ms total)
T1FD0 019:485 JLINK_IsHalted()  returns FALSE (0004ms, 1220ms total)
T1FD0 019:628 JLINK_ReadMemU32(0xE0001004, 0x0001 Items, ...) -- CPU is running -- CPU_ReadMem(4 bytes @ 0xE0001004) - Data: E7 00 0B 12  returns 0x01 (0002ms, 1218ms total)
T1FD0 019:630 JLINK_IsHalted()  returns FALSE (0002ms, 1220ms total)
T1FD0 019:732 JLINK_IsHalted()  returns FALSE (0001ms, 1219ms total)
T1FD0 019:833 JLINK_IsHalted()  returns FALSE (0001ms, 1219ms total)
T1FD0 019:934 JLINK_IsHalted()  returns FALSE (0001ms, 1219ms total)
T1FD0 020:035 JLINK_IsHalted()  returns FALSE (0001ms, 1219ms total)
T1FD0 020:136 JLINK_IsHalted()  returns FALSE (0001ms, 1219ms total)
T1FD0 020:237 JLINK_ReadMemU32(0xE0001004, 0x0001 Items, ...) -- CPU is running -- CPU_ReadMem(4 bytes @ 0xE0001004) - Data: 37 FE A6 14  returns 0x01 (0001ms, 1219ms total)
T1FD0 020:241 JLINK_IsHalted()  returns FALSE (0002ms, 1222ms total)
T1FD0 020:343 JLINK_IsHalted()  returns FALSE (0001ms, 1221ms total)
T1FD0 020:444 JLINK_IsHalted()  returns FALSE (0001ms, 1221ms total)
T1FD0 020:545 JLINK_IsHalted()  returns FALSE (0001ms, 1221ms total)
T1FD0 020:646 JLINK_IsHalted()  returns FALSE (0002ms, 1222ms total)
T1FD0 020:748 JLINK_ReadMemU32(0xE0001004, 0x0001 Items, ...) -- CPU is running -- CPU_ReadMem(4 bytes @ 0xE0001004) - Data: BC 50 D8 16  returns 0x01 (0001ms, 1221ms total)
T1FD0 020:752 JLINK_IsHalted()  returns FALSE (0002ms, 1223ms total)
T1FD0 020:854 JLINK_IsHalted()  returns FALSE (0001ms, 1222ms total)
T1FD0 020:955 JLINK_IsHalted()  returns FALSE (0001ms, 1222ms total)
T1FD0 021:056 JLINK_IsHalted()  returns FALSE (0001ms, 1222ms total)
T1FD0 021:157 JLINK_IsHalted()  returns FALSE (0001ms, 1222ms total)
T1FD0 021:258 JLINK_IsHalted()  returns FALSE (0001ms, 1222ms total)
T1FD0 021:359 JLINK_ReadMemU32(0xE0001004, 0x0001 Items, ...) -- CPU is running -- CPU_ReadMem(4 bytes @ 0xE0001004) - Data: B0 AD 77 19  returns 0x01 (0001ms, 1222ms total)
T1FD0 021:361 JLINK_IsHalted()  returns FALSE (0002ms, 1224ms total)
T1FD0 021:463 JLINK_IsHalted()  returns FALSE (0001ms, 1223ms total)
T1FD0 021:564 JLINK_IsHalted()  returns FALSE (0001ms, 1223ms total)
T1FD0 021:665 JLINK_IsHalted()  returns FALSE (0002ms, 1224ms total)
T1FD0 021:767 JLINK_IsHalted()  returns FALSE (0001ms, 1223ms total)
T1FD0 021:868 JLINK_IsHalted()  returns FALSE (0001ms, 1223ms total)
T1FD0 021:969 JLINK_ReadMemU32(0xE0001004, 0x0001 Items, ...) -- CPU is running -- CPU_ReadMem(4 bytes @ 0xE0001004) - Data: 70 3E 16 1C  returns 0x01 (0001ms, 1223ms total)
T1FD0 021:973 JLINK_IsHalted()  returns FALSE (0001ms, 1224ms total)
T1FD0 022:074 JLINK_IsHalted()  returns FALSE (0001ms, 1224ms total)
T1FD0 022:175 JLINK_IsHalted()  returns FALSE (0001ms, 1224ms total)
T1FD0 022:276 JLINK_IsHalted()  returns FALSE (0001ms, 1224ms total)
T1FD0 022:377 JLINK_IsHalted()  returns FALSE (0001ms, 1224ms total)
T1FD0 022:478 JLINK_ReadMemU32(0xE0001004, 0x0001 Items, ...) -- CPU is running -- CPU_ReadMem(4 bytes @ 0xE0001004) - Data: B6 9A 45 1E  returns 0x01 (0001ms, 1224ms total)
T1FD0 022:482 JLINK_IsHalted()  returns FALSE (0001ms, 1225ms total)
T1FD0 022:583 JLINK_IsHalted()  returns FALSE (0001ms, 1225ms total)
T1FD0 022:686 JLINK_IsHalted()  returns FALSE (0005ms, 1229ms total)
T1FD0 022:791 JLINK_Halt()  returns 0x00 (0009ms, 1233ms total)
T1FD0 022:800 JLINK_IsHalted()  returns TRUE (0000ms, 1233ms total)
T1FD0 022:800 JLINK_IsHalted()  returns TRUE (0000ms, 1233ms total)
T1FD0 022:800 JLINK_IsHalted()  returns TRUE (0000ms, 1233ms total)
T1FD0 022:800 JLINK_ReadReg(R15 (PC))  returns 0x08000212 (0000ms, 1233ms total)
T1FD0 022:800 JLINK_ReadReg(XPSR)  returns 0x41000044 (0000ms, 1233ms total)
T1FD0 022:800 JLINK_ClrBPEx(BPHandle = 0x0000000D)  returns 0x00 (0001ms, 1234ms total)
T1FD0 022:801 JLINK_ReadMemU32(0xE000ED30, 0x0001 Items, ...) -- CPU_ReadMem(4 bytes @ 0xE000ED30) - Data: 01 00 00 00  returns 0x01 (0001ms, 1235ms total)
T1FD0 022:802 JLINK_ReadMemU32(0xE0001028, 0x0001 Items, ...) -- CPU_ReadMem(4 bytes @ 0xE0001028) - Data: 00 00 00 00  returns 0x01 (0002ms, 1237ms total)
T1FD0 022:804 JLINK_ReadMemU32(0xE0001038, 0x0001 Items, ...) -- CPU_ReadMem(4 bytes @ 0xE0001038) - Data: 00 02 00 00  returns 0x01 (0002ms, 1239ms total)
T1FD0 022:806 JLINK_ReadMemU32(0xE0001048, 0x0001 Items, ...) -- CPU_ReadMem(4 bytes @ 0xE0001048) - Data: 00 00 00 00  returns 0x01 (0005ms, 1244ms total)
T1FD0 022:811 JLINK_ReadMemU32(0xE0001058, 0x0001 Items, ...) -- CPU_ReadMem(4 bytes @ 0xE0001058) - Data: 00 00 00 00  returns 0x01 (0002ms, 1246ms total)
T1FD0 022:813 JLINK_ReadReg(R0)  returns 0x40000800 (0000ms, 1246ms total)
T1FD0 022:813 JLINK_ReadReg(R1)  returns 0x00000000 (0000ms, 1246ms total)
T1FD0 022:813 JLINK_ReadReg(R2)  returns 0x00000000 (0000ms, 1246ms total)
T1FD0 022:813 JLINK_ReadReg(R3)  returns 0x0000FFFE (0001ms, 1247ms total)
T1FD0 022:814 JLINK_ReadReg(R4)  returns 0x00000000 (0000ms, 1247ms total)
T1FD0 022:814 JLINK_ReadReg(R5)  returns 0x20000DE8 (0000ms, 1247ms total)
T1FD0 022:814 JLINK_ReadReg(R6)  returns 0x00000000 (0000ms, 1247ms total)
T1FD0 022:814 JLINK_ReadReg(R7)  returns 0x000000FF (0000ms, 1247ms total)
T1FD0 022:814 JLINK_ReadReg(R8)  returns 0x00000000 (0000ms, 1247ms total)
T1FD0 022:814 JLINK_ReadReg(R9)  returns 0x20000160 (0000ms, 1247ms total)
T1FD0 022:814 JLINK_ReadReg(R10)  returns 0x08003808 (0000ms, 1247ms total)
T1FD0 022:814 JLINK_ReadReg(R11)  returns 0x00000000 (0001ms, 1248ms total)
T1FD0 022:815 JLINK_ReadReg(R12)  returns 0x00000800 (0000ms, 1248ms total)
T1FD0 022:815 JLINK_ReadReg(R13 (SP))  returns 0x20001428 (0000ms, 1248ms total)
T1FD0 022:815 JLINK_ReadReg(R14)  returns 0xFFFFFFF9 (0000ms, 1248ms total)
T1FD0 022:815 JLINK_ReadReg(R15 (PC))  returns 0x08000212 (0000ms, 1248ms total)
T1FD0 022:815 JLINK_ReadReg(XPSR)  returns 0x41000044 (0000ms, 1248ms total)
T1FD0 022:815 JLINK_ReadReg(MSP)  returns 0x20001428 (0000ms, 1248ms total)
T1FD0 022:815 JLINK_ReadReg(PSP)  returns 0x20001000 (0000ms, 1248ms total)
T1FD0 022:815 JLINK_ReadReg(CFBP)  returns 0x00000000 (0001ms, 1249ms total)
T11B8 022:816 JLINK_ReadMem (0x20001440, 0x0004 Bytes, ...) -- CPU_ReadMem(64 bytes @ 0x20001440) -- Updating C cache (64 bytes @ 0x20001440) -- Read from C cache (4 bytes @ 0x20001440) - Data: D4 2E 00 08  returns 0x00 (0003ms, 1252ms total)
T11B8 022:819 JLINK_ReadMem (0x20001444, 0x0004 Bytes, ...) -- Read from C cache (4 bytes @ 0x20001444) - Data: 00 00 00 41  returns 0x00 (0000ms, 1252ms total)
